
T64F8 000:003 SEGGER J-Link V6.20b Log File (0000ms, 0002ms total)
T64F8 000:003 DLL Compiled: Sep 22 2017 17:57:26 (0000ms, 0002ms total)
T64F8 000:003 Logging started @ 2017-10-28 15:48 (0000ms, 0002ms total)
T64F8 000:003 JLINK_SetWarnOutHandler(...) (0000ms, 0002ms total)
T64F8 000:003 JLINK_OpenEx(...)
Firmware: J-Link STLink V21 compiled Jun 26 2017 10:35:16
Hardware: V1.00
S/N: 775536190
TELNET listener socket opened on port 19021WEBSRV 
Webserver running on local port 19080  returns O.K. (0024ms, 0026ms total)
T64F8 000:027 JLINK_GetEmuCaps()  returns 0x98EA5A33 (0000ms, 0026ms total)
T64F8 000:027 JLINK_TIF_GetAvailable(...) (0000ms, 0026ms total)
T64F8 000:027 JLINK_SetErrorOutHandler(...) (0000ms, 0026ms total)
T64F8 000:027 JLINK_ExecCommand("ProjectFile = "C:\Embedded\Nucleo-411RE\STM32F4-Custom-Bootloader\Bootloader\MDK-5\JLinkSettings.ini"", ...). C:\Program Files (x86)\SEGGER\JLink_V620b\JLinkDevices.xml evaluated successfully.  returns 0x00 (0163ms, 0189ms total)
T64F8 000:190 JLINK_ExecCommand("Device = STM32F411RETx", ...). Device "STM32F411RE" selected.  returns 0x00 (0003ms, 0192ms total)
T64F8 000:193 JLINK_ExecCommand("DisableConnectionTimeout", ...).   returns 0x01 (0000ms, 0192ms total)
T64F8 000:193 JLINK_GetHardwareVersion()  returns 0x2710 (0000ms, 0192ms total)
T64F8 000:193 JLINK_GetDLLVersion()  returns 62002 (0000ms, 0192ms total)
T64F8 000:193 JLINK_GetFirmwareString(...) (0000ms, 0192ms total)
T64F8 000:193 JLINK_GetDLLVersion()  returns 62002 (0000ms, 0192ms total)
T64F8 000:193 JLINK_GetCompileDateTime() (0000ms, 0192ms total)
T64F8 000:193 JLINK_GetFirmwareString(...) (0000ms, 0192ms total)
T64F8 000:193 JLINK_GetHardwareVersion()  returns 0x2710 (0000ms, 0192ms total)
T64F8 000:193 JLINK_TIF_Select(JLINKARM_TIF_SWD)  returns 0x00 (0001ms, 0193ms total)
T64F8 000:194 JLINK_SetSpeed(5000) (0000ms, 0193ms total)
T64F8 000:194 JLINK_GetId() >0x10B TIF>Found SW-DP with ID 0x4BA01477 >0x0D TIF> >0x28 TIF> >0x0D TIF> >0x28 TIF> >0x0D TIF> >0x28 TIF> >0x0D TIF> >0x28 TIF> >0x0D TIF> >0x21 TIF> >0x0D TIF> >0x28 TIF> >0x0D TIF> >0x28 TIF> >0x0D TIF> >0x28 TIF> >0x0D TIF> >0x21 TIF> >0x0D TIF> >0x21 TIF> >0x0D TIF> >0x28 TIF> >0x0D TIF> >0x21 TIF> >0x0D TIF> >0x21 TIF> >0x0D TIF> >0x28 TIF> >0x0D TIF> >0x21 TIF> >0x0D TIF> >0x21 TIF> >0x0D TIF> >0x28 TIF> >0x0D TIF> >0x21 TIF> >0x0D TIF> >0x21 TIF> >0x0D TIF> >0x28 TIF>
 >0x0D TIF> >0x21 TIF> >0x0D TIF> >0x21 TIF> >0x0D TIF> >0x28 TIF> >0x0D TIF> >0x21 TIF> >0x0D TIF> >0x21 TIF> >0x10B TIF>Found SW-DP with ID 0x4BA01477 >0x0D TIF> >0x28 TIF> >0x0D TIF> >0x28 TIF> >0x0D TIF> >0x28 TIF> >0x0D TIF> >0x28 TIF> >0x0D TIF> >0x21 TIF> >0x0D TIF> >0x28 TIF>Scanning AP map to find all available APs >0x0D TIF> >0x28 TIF> >0x0D TIF> >0x21 TIF> >0x0D TIF> >0x21 TIF> >0x0D TIF> >0x28 TIF> >0x0D TIF> >0x21 TIF> >0x0D TIF> >0x21 TIF>
AP[1]: Stopped AP scan as end of AP map has been reachedAP[0]: AHB-AP (IDR: 0x24770011)Iterating through AP map to find AHB-AP to use >0x42 TIF> >0x28 TIF> >0x0D TIF> >0x21 TIF> >0x0D TIF> >0x21 TIF> >0x42 TIF> >0x28 TIF> >0x0D TIF> >0x28 TIF> >0x0D TIF> >0x28 TIF> >0x0D TIF> >0x21 TIF> >0x0D TIF> >0x21 TIF>AP[0]: Core foundAP[0]: AHB-AP ROM base: 0xE00FF000 >0x0D TIF> >0x28 TIF> >0x0D TIF> >0x28 TIF> >0x0D TIF> >0x28 TIF> >0x0D TIF> >0x21 TIF> >0x0D TIF> >0x21 TIF>
CPUID register: 0x410FC241. Implementer code: 0x41 (ARM)Found Cortex-M4 r0p1, Little endian. -- CPU_ReadMem(4 bytes @ 0xE000EDF0) -- CPU_WriteMem(4 bytes @ 0xE000EDF0) -- CPU_ReadMem(4 bytes @ 0xE0002000)FPUnit: 6 code (BP) slots and 2 literal slots -- CPU_ReadMem(4 bytes @ 0xE000EDFC) -- CPU_WriteMem(4 bytes @ 0xE000EDFC) -- CPU_ReadMem(4 bytes @ 0xE0001000) -- CPU_WriteMem(4 bytes @ 0xE0001000) -- CPU_ReadMem(4 bytes @ 0xE000ED88) -- CPU_WriteMem(4 bytes @ 0xE000ED88)
 -- CPU_ReadMem(4 bytes @ 0xE000ED88) -- CPU_WriteMem(4 bytes @ 0xE000ED88)CoreSight components:ROMTbl[0] @ E00FF000 -- CPU_ReadMem(16 bytes @ 0xE00FF000) -- CPU_ReadMem(16 bytes @ 0xE000EFF0) -- CPU_ReadMem(16 bytes @ 0xE000EFE0)ROMTbl[0][0]: E000E000, CID: B105E00D, PID: 000BB00C SCS -- CPU_ReadMem(16 bytes @ 0xE0001FF0) -- CPU_ReadMem(16 bytes @ 0xE0001FE0)ROMTbl[0][1]: E0001000, CID: B105E00D, PID: 003BB002 DWT -- CPU_ReadMem(16 bytes @ 0xE0002FF0) -- CPU_ReadMem(16 bytes @ 0xE0002FE0)
ROMTbl[0][2]: E0002000, CID: B105E00D, PID: 002BB003 FPB -- CPU_ReadMem(16 bytes @ 0xE0000FF0) -- CPU_ReadMem(16 bytes @ 0xE0000FE0)ROMTbl[0][3]: E0000000, CID: B105E00D, PID: 003BB001 ITM -- CPU_ReadMem(16 bytes @ 0xE00FF010) -- CPU_ReadMem(16 bytes @ 0xE0040FF0) -- CPU_ReadMem(16 bytes @ 0xE0040FE0)ROMTbl[0][4]: E0040000, CID: B105900D, PID: 000BB9A1 TPIU -- CPU_ReadMem(16 bytes @ 0xE0041FF0) -- CPU_ReadMem(16 bytes @ 0xE0041FE0)ROMTbl[0][5]: E0041000, CID: B105900D, PID: 000BB925 ETM >0x0D TIF>
 >0x21 TIF>  returns 0x2BA01477 (0134ms, 0327ms total)
T64F8 000:328 JLINK_GetDLLVersion()  returns 62002 (0001ms, 0328ms total)
T64F8 000:329 JLINK_CORE_GetFound()  returns 0xE0000FF (0000ms, 0328ms total)
T64F8 000:329 JLINK_GetDebugInfo(0x100 = JLINKARM_ROM_TABLE_ADDR_INDEX) -- Value=0xE00FF000  returns 0x00 (0000ms, 0328ms total)
T64F8 000:329 JLINK_GetDebugInfo(0x100 = JLINKARM_ROM_TABLE_ADDR_INDEX) -- Value=0xE00FF000  returns 0x00 (0000ms, 0328ms total)
T64F8 000:329 JLINK_GetDebugInfo(0x101 = JLINKARM_DEBUG_INFO_ETM_ADDR_INDEX) -- Value=0xE0041000  returns 0x00 (0000ms, 0328ms total)
T64F8 000:329 JLINK_ReadMemEx(0xE0041FD0, 0x0020 Bytes, ..., Flags = 0x02000004) -- CPU_ReadMem(32 bytes @ 0xE0041FD0) - Data: 04 00 00 00 00 00 00 00 00 00 00 00 00 00 00 00 ...  returns 0x20 (0000ms, 0328ms total)
T64F8 000:329 JLINK_GetDebugInfo(0x102 = JLINKARM_DEBUG_INFO_MTB_ADDR_INDEX) -- Value=0x00000000  returns 0x00 (0000ms, 0328ms total)
T64F8 000:329 JLINK_GetDebugInfo(0x103 = JLINKARM_DEBUG_INFO_TPIU_ADDR_INDEX) -- Value=0xE0040000  returns 0x00 (0000ms, 0328ms total)
T64F8 000:329 JLINK_GetDebugInfo(0x104 = JLINKARM_DEBUG_INFO_ITM_ADDR_INDEX) -- Value=0xE0000000  returns 0x00 (0000ms, 0328ms total)
T64F8 000:329 JLINK_GetDebugInfo(0x105 = JLINKARM_DEBUG_INFO_DWT_ADDR_INDEX) -- Value=0xE0001000  returns 0x00 (0000ms, 0328ms total)
T64F8 000:329 JLINK_GetDebugInfo(0x106 = JLINKARM_DEBUG_INFO_FPB_ADDR_INDEX) -- Value=0xE0002000  returns 0x00 (0000ms, 0328ms total)
T64F8 000:329 JLINK_GetDebugInfo(0x107 = JLINKARM_DEBUG_INFO_NVIC_ADDR_INDEX) -- Value=0xE000E000  returns 0x00 (0000ms, 0328ms total)
T64F8 000:329 JLINK_GetDebugInfo(0x10C = JLINKARM_DEBUG_INFO_DBG_ADDR_INDEX) -- Value=0xE000EDF0  returns 0x00 (0000ms, 0328ms total)
T64F8 000:329 JLINK_ReadMemU32(0xE000EF40, 0x0001 Items, ...) -- CPU_ReadMem(4 bytes @ 0xE000EF40) - Data: 21 00 11 10  returns 0x01 (0001ms, 0329ms total)
T64F8 000:330 JLINK_ReadMemU32(0xE000EF44, 0x0001 Items, ...) -- CPU_ReadMem(4 bytes @ 0xE000EF44) - Data: 11 00 00 11  returns 0x01 (0000ms, 0329ms total)
T64F8 000:330 JLINK_ReadMemU32(0xE000ED00, 0x0001 Items, ...) -- CPU_ReadMem(4 bytes @ 0xE000ED00) - Data: 41 C2 0F 41  returns 0x01 (0001ms, 0330ms total)
T64F8 000:331 JLINK_GetDebugInfo(0x10F = JLINKARM_DEBUG_INFO_HAS_CORTEX_M_SECURITY_EXT_INDEX) -- Value=0x00000000  returns 0x00 (0000ms, 0330ms total)
T64F8 000:331 JLINK_SetResetType(JLINKARM_CM3_RESET_TYPE_NORMAL)  returns JLINKARM_CM3_RESET_TYPE_NORMAL (0000ms, 0330ms total)
T64F8 000:331 JLINK_Reset() -- CPU is running -- CPU_WriteMem(4 bytes @ 0xE000EDF0) -- CPU is running -- CPU_WriteMem(4 bytes @ 0xE000EDFC)Reset: Halt core after reset via DEMCR.VC_CORERESET. >0x35 TIF>Reset: Reset device via AIRCR.SYSRESETREQ. -- CPU is running -- CPU_WriteMem(4 bytes @ 0xE000ED0C) >0x0D TIF> >0x28 TIF> -- CPU_ReadMem(4 bytes @ 0xE000EDF0) -- CPU_ReadMem(4 bytes @ 0xE000EDF0) -- CPU is running -- CPU_WriteMem(4 bytes @ 0xE000EDF0) -- CPU is running -- CPU_WriteMem(4 bytes @ 0xE000EDFC)
 -- CPU_ReadMem(4 bytes @ 0xE000EDF0) -- CPU_WriteMem(4 bytes @ 0xE0002000) -- CPU_ReadMem(4 bytes @ 0xE000EDFC) -- CPU_ReadMem(4 bytes @ 0xE0001000) (0065ms, 0395ms total)
T64F8 000:396 JLINK_ReadReg(R15 (PC))  returns 0x08000240 (0000ms, 0395ms total)
T64F8 000:396 JLINK_ReadReg(XPSR)  returns 0x01000000 (0000ms, 0395ms total)
T64F8 000:396 JLINK_Halt()  returns 0x00 (0000ms, 0395ms total)
T64F8 000:396 JLINK_ReadMemU32(0xE000EDF0, 0x0001 Items, ...) -- CPU_ReadMem(4 bytes @ 0xE000EDF0) - Data: 03 00 03 00  returns 0x01 (0001ms, 0396ms total)
T64F8 000:397 JLINK_WriteU32(0xE000EDF0, 0xA05F0003) -- CPU_WriteMem(4 bytes @ 0xE000EDF0)  returns 0x00 (0000ms, 0396ms total)
T64F8 000:397 JLINK_WriteU32(0xE000EDFC, 0x01000000) -- CPU_WriteMem(4 bytes @ 0xE000EDFC)  returns 0x00 (0001ms, 0397ms total)
T64F8 000:398 JLINK_GetHWStatus(...)  returns 0x00 (0000ms, 0397ms total)
T64F8 000:398 JLINK_GetNumBPUnits(Type = 0xFFFFFF00)  returns 0x06 (0000ms, 0397ms total)
T64F8 000:398 JLINK_GetNumBPUnits(Type = 0xF0)  returns 0x2000 (0000ms, 0397ms total)
T64F8 000:398 JLINK_GetNumWPUnits()  returns 0x04 (0000ms, 0397ms total)
T64F8 000:399 JLINK_GetSpeed()  returns 0xFA0 (0000ms, 0397ms total)
T64F8 000:399 JLINK_ReadMemU32(0xE000E004, 0x0001 Items, ...) -- CPU_ReadMem(4 bytes @ 0xE000E004) - Data: 02 00 00 00  returns 0x01 (0001ms, 0398ms total)
T64F8 000:400 JLINK_ReadMemU32(0xE000E004, 0x0001 Items, ...) -- CPU_ReadMem(4 bytes @ 0xE000E004) - Data: 02 00 00 00  returns 0x01 (0000ms, 0398ms total)
T64F8 000:400 JLINK_WriteMemEx(0xE0001000, 0x001C Bytes, ..., Flags = 0x02000004) - Data: 01 00 00 00 00 00 00 00 00 00 00 00 00 00 00 00 ... -- CPU_WriteMem(28 bytes @ 0xE0001000)  returns 0x1C (0001ms, 0399ms total)
T64F8 000:401 JLINK_ReadReg(R15 (PC))  returns 0x08000240 (0000ms, 0399ms total)
T64F8 000:401 JLINK_ReadReg(XPSR)  returns 0x01000000 (0000ms, 0399ms total)
T64F8 000:481 JLINK_SetResetType(JLINKARM_CM3_RESET_TYPE_NORMAL)  returns JLINKARM_CM3_RESET_TYPE_NORMAL (0001ms, 0400ms total)
T64F8 000:482 JLINK_Reset() -- CPU_WriteMem(4 bytes @ 0xE000EDF0) -- CPU_WriteMem(4 bytes @ 0xE000EDFC)Reset: Halt core after reset via DEMCR.VC_CORERESET. >0x35 TIF>Reset: Reset device via AIRCR.SYSRESETREQ. -- CPU_WriteMem(4 bytes @ 0xE000ED0C) >0x0D TIF> >0x28 TIF> -- CPU_ReadMem(4 bytes @ 0xE000EDF0) -- CPU_ReadMem(4 bytes @ 0xE000EDF0) -- CPU_WriteMem(4 bytes @ 0xE000EDF0) -- CPU_WriteMem(4 bytes @ 0xE000EDFC) -- CPU_ReadMem(4 bytes @ 0xE000EDF0) -- CPU_WriteMem(4 bytes @ 0xE0002000)
 -- CPU_ReadMem(4 bytes @ 0xE000EDFC) -- CPU_ReadMem(4 bytes @ 0xE0001000) (0066ms, 0466ms total)
T64F8 000:549 JLINK_ReadReg(R15 (PC))  returns 0x08000240 (0000ms, 0466ms total)
T64F8 000:549 JLINK_ReadReg(XPSR)  returns 0x01000000 (0000ms, 0466ms total)
T64F8 000:549 JLINK_ReadMemEx(0x08000240, 0x003C Bytes, ..., Flags = 0x02000000) -- CPU_ReadMem(64 bytes @ 0x08000240) -- Updating C cache (64 bytes @ 0x08000240) -- Read from C cache (60 bytes @ 0x08000240) - Data: 09 48 80 47 09 48 00 47 FE E7 FE E7 FE E7 FE E7 ...  returns 0x3C (0002ms, 0468ms total)
T64F8 002:310 JLINK_ReadMemEx(0x080006BC, 0x003C Bytes, ..., Flags = 0x02000000) -- CPU_ReadMem(128 bytes @ 0x08000680) -- Updating C cache (128 bytes @ 0x08000680) -- Read from C cache (60 bytes @ 0x080006BC) - Data: 08 4C 24 1D 24 68 44 F4 80 34 06 4D 2D 1D 2C 60 ...  returns 0x3C (0002ms, 0470ms total)
T64F8 002:641 JLINK_ReadReg(R0)  returns 0x00000000 (0000ms, 0470ms total)
T64F8 002:641 JLINK_ReadReg(R1)  returns 0x00000000 (0000ms, 0470ms total)
T64F8 002:641 JLINK_ReadReg(R2)  returns 0x00000000 (0000ms, 0470ms total)
T64F8 002:641 JLINK_ReadReg(R3)  returns 0x00000000 (0000ms, 0470ms total)
T64F8 002:641 JLINK_ReadReg(R4)  returns 0x00000000 (0000ms, 0470ms total)
T64F8 002:641 JLINK_ReadReg(R5)  returns 0x00000000 (0000ms, 0470ms total)
T64F8 002:641 JLINK_ReadReg(R6)  returns 0x00000000 (0000ms, 0470ms total)
T64F8 002:641 JLINK_ReadReg(R7)  returns 0x00000000 (0000ms, 0470ms total)
T64F8 002:641 JLINK_ReadReg(R8)  returns 0x00000000 (0000ms, 0470ms total)
T64F8 002:641 JLINK_ReadReg(R9)  returns 0x00000000 (0000ms, 0470ms total)
T64F8 002:641 JLINK_ReadReg(R10)  returns 0x00000000 (0000ms, 0470ms total)
T64F8 002:641 JLINK_ReadReg(R11)  returns 0x00000000 (0000ms, 0470ms total)
T64F8 002:641 JLINK_ReadReg(R12)  returns 0x00000000 (0000ms, 0470ms total)
T64F8 002:641 JLINK_ReadReg(R13 (SP))  returns 0x200006A8 (0000ms, 0470ms total)
T64F8 002:641 JLINK_ReadReg(R14)  returns 0xFFFFFFFF (0000ms, 0470ms total)
T64F8 002:641 JLINK_ReadReg(R15 (PC))  returns 0x08000240 (0000ms, 0470ms total)
T64F8 002:641 JLINK_ReadReg(XPSR)  returns 0x01000000 (0000ms, 0470ms total)
T64F8 002:641 JLINK_ReadReg(MSP)  returns 0x200006A8 (0000ms, 0470ms total)
T64F8 002:641 JLINK_ReadReg(PSP)  returns 0x00000000 (0000ms, 0470ms total)
T64F8 002:641 JLINK_ReadReg(CFBP)  returns 0x00000000 (0000ms, 0470ms total)
T64F8 002:641 JLINK_ReadReg(FPSCR)  returns 0x00000000 (0005ms, 0475ms total)
T64F8 002:646 JLINK_ReadReg(FPS0)  returns 0x00000000 (0000ms, 0475ms total)
T64F8 002:646 JLINK_ReadReg(FPS1)  returns 0x00000000 (0000ms, 0475ms total)
T64F8 002:646 JLINK_ReadReg(FPS2)  returns 0x00000000 (0000ms, 0475ms total)
T64F8 002:646 JLINK_ReadReg(FPS3)  returns 0x00000000 (0000ms, 0475ms total)
T64F8 002:646 JLINK_ReadReg(FPS4)  returns 0x00000000 (0000ms, 0475ms total)
T64F8 002:646 JLINK_ReadReg(FPS5)  returns 0x00000000 (0000ms, 0475ms total)
T64F8 002:646 JLINK_ReadReg(FPS6)  returns 0x00000000 (0000ms, 0475ms total)
T64F8 002:646 JLINK_ReadReg(FPS7)  returns 0x00000000 (0000ms, 0475ms total)
T64F8 002:646 JLINK_ReadReg(FPS8)  returns 0x00000000 (0000ms, 0475ms total)
T64F8 002:646 JLINK_ReadReg(FPS9)  returns 0x00000000 (0000ms, 0475ms total)
T64F8 002:646 JLINK_ReadReg(FPS10)  returns 0x00000000 (0000ms, 0475ms total)
T64F8 002:646 JLINK_ReadReg(FPS11)  returns 0x00000000 (0000ms, 0475ms total)
T64F8 002:646 JLINK_ReadReg(FPS12)  returns 0x00000000 (0000ms, 0475ms total)
T64F8 002:646 JLINK_ReadReg(FPS13)  returns 0x00000000 (0000ms, 0475ms total)
T64F8 002:646 JLINK_ReadReg(FPS14)  returns 0x00000000 (0000ms, 0475ms total)
T64F8 002:646 JLINK_ReadReg(FPS15)  returns 0x00000000 (0000ms, 0475ms total)
T64F8 002:646 JLINK_ReadReg(FPS16)  returns 0x00000000 (0000ms, 0475ms total)
T64F8 002:646 JLINK_ReadReg(FPS17)  returns 0x00000000 (0000ms, 0475ms total)
T64F8 002:646 JLINK_ReadReg(FPS18)  returns 0x00000000 (0000ms, 0475ms total)
T64F8 002:646 JLINK_ReadReg(FPS19)  returns 0x00000000 (0000ms, 0475ms total)
T64F8 002:646 JLINK_ReadReg(FPS20)  returns 0x00000000 (0000ms, 0475ms total)
T64F8 002:646 JLINK_ReadReg(FPS21)  returns 0x00000000 (0000ms, 0475ms total)
T64F8 002:646 JLINK_ReadReg(FPS22)  returns 0x00000000 (0000ms, 0475ms total)
T64F8 002:646 JLINK_ReadReg(FPS23)  returns 0x00000000 (0000ms, 0475ms total)
T64F8 002:646 JLINK_ReadReg(FPS24)  returns 0x00000000 (0000ms, 0475ms total)
T64F8 002:646 JLINK_ReadReg(FPS25)  returns 0x00000000 (0000ms, 0475ms total)
T64F8 002:646 JLINK_ReadReg(FPS26)  returns 0x00000000 (0000ms, 0475ms total)
T64F8 002:646 JLINK_ReadReg(FPS27)  returns 0x00000000 (0000ms, 0475ms total)
T64F8 002:646 JLINK_ReadReg(FPS28)  returns 0x00000000 (0000ms, 0475ms total)
T64F8 002:646 JLINK_ReadReg(FPS29)  returns 0x00000000 (0000ms, 0475ms total)
T64F8 002:646 JLINK_ReadReg(FPS30)  returns 0x00000000 (0000ms, 0475ms total)
T64F8 002:646 JLINK_ReadReg(FPS31)  returns 0x00000000 (0000ms, 0475ms total)
T7B50 002:769 JLINK_ReadMemEx(0x08000240, 0x0002 Bytes, ..., Flags = 0x02000000) -- Read from C cache (2 bytes @ 0x08000240) - Data: 09 48  returns 0x02 (0000ms, 0475ms total)
T7B50 002:769 JLINK_SetBPEx(Addr = 0x08000BC4, Type = 0xFFFFFFF2)  returns 0x00000001 (0000ms, 0475ms total)
T7B50 002:769 JLINK_SetBPEx(Addr = 0x0800062E, Type = 0xFFFFFFF2)  returns 0x00000002 (0000ms, 0475ms total)
T7B50 002:769 JLINK_SetBPEx(Addr = 0x080005EA, Type = 0xFFFFFFF2)  returns 0x00000003 (0000ms, 0475ms total)
T7B50 002:769 JLINK_SetBPEx(Addr = 0x08000C42, Type = 0xFFFFFFF2)  returns 0x00000004 (0000ms, 0475ms total)
T7B50 002:769 JLINK_Go() -- CPU_WriteMem(4 bytes @ 0xE0002000) -- CPU_WriteMem(4 bytes @ 0xE0002000) -- CPU_WriteMem(4 bytes @ 0xE0002000) -- CPU_WriteMem(4 bytes @ 0xE0002000) -- CPU_ReadMem(4 bytes @ 0xE0001000) -- CPU_WriteMem(4 bytes @ 0xE0002008) -- CPU_WriteMem(4 bytes @ 0xE000200C) -- CPU_WriteMem(4 bytes @ 0xE0002010) -- CPU_WriteMem(4 bytes @ 0xE0002014) -- CPU_WriteMem(4 bytes @ 0xE0002018) -- CPU_WriteMem(4 bytes @ 0xE000201C) -- CPU_WriteMem(4 bytes @ 0xE0001004) (0004ms, 0479ms total)
T7B50 002:874 JLINK_IsHalted()  returns TRUE (0003ms, 0482ms total)
T7B50 002:877 JLINK_Halt()  returns 0x00 (0000ms, 0479ms total)
T7B50 002:877 JLINK_IsHalted()  returns TRUE (0000ms, 0479ms total)
T7B50 002:877 JLINK_IsHalted()  returns TRUE (0000ms, 0479ms total)
T7B50 002:877 JLINK_IsHalted()  returns TRUE (0000ms, 0479ms total)
T7B50 002:877 JLINK_ReadReg(R15 (PC))  returns 0x08000BC4 (0000ms, 0479ms total)
T7B50 002:877 JLINK_ReadReg(XPSR)  returns 0x21000000 (0000ms, 0479ms total)
T7B50 002:877 JLINK_ClrBPEx(BPHandle = 0x00000001)  returns 0x00 (0000ms, 0479ms total)
T7B50 002:877 JLINK_ClrBPEx(BPHandle = 0x00000002)  returns 0x00 (0000ms, 0479ms total)
T7B50 002:877 JLINK_ClrBPEx(BPHandle = 0x00000003)  returns 0x00 (0000ms, 0479ms total)
T7B50 002:877 JLINK_ClrBPEx(BPHandle = 0x00000004)  returns 0x00 (0000ms, 0479ms total)
T7B50 002:877 JLINK_ReadMemU32(0xE000ED30, 0x0001 Items, ...) -- CPU_ReadMem(4 bytes @ 0xE000ED30) - Data: 02 00 00 00  returns 0x01 (0001ms, 0480ms total)
T7B50 002:878 JLINK_ReadMemU32(0xE0001028, 0x0001 Items, ...) -- CPU_ReadMem(4 bytes @ 0xE0001028) - Data: 00 00 00 00  returns 0x01 (0000ms, 0480ms total)
T7B50 002:878 JLINK_ReadMemU32(0xE0001038, 0x0001 Items, ...) -- CPU_ReadMem(4 bytes @ 0xE0001038) - Data: 00 02 00 00  returns 0x01 (0000ms, 0480ms total)
T7B50 002:878 JLINK_ReadMemU32(0xE0001048, 0x0001 Items, ...) -- CPU_ReadMem(4 bytes @ 0xE0001048) - Data: 00 00 00 00  returns 0x01 (0001ms, 0481ms total)
T7B50 002:879 JLINK_ReadMemU32(0xE0001058, 0x0001 Items, ...) -- CPU_ReadMem(4 bytes @ 0xE0001058) - Data: 00 00 00 00  returns 0x01 (0001ms, 0482ms total)
T7B50 002:880 JLINK_ReadReg(R0)  returns 0x200000A8 (0000ms, 0482ms total)
T7B50 002:880 JLINK_ReadReg(R1)  returns 0x200002A8 (0000ms, 0482ms total)
T7B50 002:880 JLINK_ReadReg(R2)  returns 0x200002A8 (0000ms, 0482ms total)
T7B50 002:880 JLINK_ReadReg(R3)  returns 0x200002A8 (0000ms, 0482ms total)
T7B50 002:880 JLINK_ReadReg(R4)  returns 0x00000000 (0000ms, 0482ms total)
T7B50 002:880 JLINK_ReadReg(R5)  returns 0x20000044 (0000ms, 0482ms total)
T7B50 002:880 JLINK_ReadReg(R6)  returns 0x00000000 (0000ms, 0482ms total)
T7B50 002:880 JLINK_ReadReg(R7)  returns 0x00000000 (0000ms, 0482ms total)
T7B50 002:880 JLINK_ReadReg(R8)  returns 0x00000000 (0000ms, 0482ms total)
T7B50 002:880 JLINK_ReadReg(R9)  returns 0x00000000 (0000ms, 0482ms total)
T7B50 002:880 JLINK_ReadReg(R10)  returns 0x08000CAC (0000ms, 0482ms total)
T7B50 002:880 JLINK_ReadReg(R11)  returns 0x00000000 (0000ms, 0482ms total)
T7B50 002:880 JLINK_ReadReg(R12)  returns 0x200000B8 (0000ms, 0482ms total)
T7B50 002:880 JLINK_ReadReg(R13 (SP))  returns 0x200006A8 (0000ms, 0482ms total)
T7B50 002:880 JLINK_ReadReg(R14)  returns 0x0800022F (0000ms, 0482ms total)
T7B50 002:880 JLINK_ReadReg(R15 (PC))  returns 0x08000BC4 (0000ms, 0482ms total)
T7B50 002:880 JLINK_ReadReg(XPSR)  returns 0x21000000 (0000ms, 0482ms total)
T7B50 002:880 JLINK_ReadReg(MSP)  returns 0x200006A8 (0000ms, 0482ms total)
T7B50 002:880 JLINK_ReadReg(PSP)  returns 0x00000000 (0000ms, 0482ms total)
T7B50 002:880 JLINK_ReadReg(CFBP)  returns 0x04000000 (0000ms, 0482ms total)
T7B50 002:880 JLINK_ReadReg(FPSCR)  returns 0x03000000 (0005ms, 0487ms total)
T7B50 002:885 JLINK_ReadReg(FPS0)  returns 0x00000000 (0000ms, 0487ms total)
T7B50 002:885 JLINK_ReadReg(FPS1)  returns 0x00000000 (0000ms, 0487ms total)
T7B50 002:885 JLINK_ReadReg(FPS2)  returns 0x00000000 (0000ms, 0487ms total)
T7B50 002:885 JLINK_ReadReg(FPS3)  returns 0x00000000 (0000ms, 0487ms total)
T7B50 002:885 JLINK_ReadReg(FPS4)  returns 0x00000000 (0000ms, 0487ms total)
T7B50 002:885 JLINK_ReadReg(FPS5)  returns 0x00000000 (0000ms, 0487ms total)
T7B50 002:885 JLINK_ReadReg(FPS6)  returns 0x00000000 (0000ms, 0487ms total)
T7B50 002:885 JLINK_ReadReg(FPS7)  returns 0x00000000 (0000ms, 0487ms total)
T7B50 002:885 JLINK_ReadReg(FPS8)  returns 0x00000000 (0000ms, 0487ms total)
T7B50 002:885 JLINK_ReadReg(FPS9)  returns 0x00000000 (0000ms, 0487ms total)
T7B50 002:885 JLINK_ReadReg(FPS10)  returns 0x00000000 (0000ms, 0487ms total)
T7B50 002:885 JLINK_ReadReg(FPS11)  returns 0x00000000 (0000ms, 0487ms total)
T7B50 002:886 JLINK_ReadReg(FPS12)  returns 0x00000000 (0000ms, 0487ms total)
T7B50 002:886 JLINK_ReadReg(FPS13)  returns 0x00000000 (0000ms, 0487ms total)
T7B50 002:886 JLINK_ReadReg(FPS14)  returns 0x00000000 (0000ms, 0487ms total)
T7B50 002:886 JLINK_ReadReg(FPS15)  returns 0x00000000 (0000ms, 0487ms total)
T7B50 002:886 JLINK_ReadReg(FPS16)  returns 0x00000000 (0000ms, 0487ms total)
T7B50 002:886 JLINK_ReadReg(FPS17)  returns 0x00000000 (0000ms, 0487ms total)
T7B50 002:886 JLINK_ReadReg(FPS18)  returns 0x00000000 (0000ms, 0487ms total)
T7B50 002:886 JLINK_ReadReg(FPS19)  returns 0x00000000 (0000ms, 0487ms total)
T7B50 002:886 JLINK_ReadReg(FPS20)  returns 0x00000000 (0000ms, 0487ms total)
T7B50 002:886 JLINK_ReadReg(FPS21)  returns 0x00000000 (0000ms, 0487ms total)
T7B50 002:886 JLINK_ReadReg(FPS22)  returns 0x00000000 (0000ms, 0487ms total)
T7B50 002:886 JLINK_ReadReg(FPS23)  returns 0x00000000 (0000ms, 0487ms total)
T7B50 002:886 JLINK_ReadReg(FPS24)  returns 0x00000000 (0000ms, 0487ms total)
T7B50 002:886 JLINK_ReadReg(FPS25)  returns 0x00000000 (0000ms, 0487ms total)
T7B50 002:886 JLINK_ReadReg(FPS26)  returns 0x00000000 (0000ms, 0487ms total)
T7B50 002:886 JLINK_ReadReg(FPS27)  returns 0x00000000 (0000ms, 0487ms total)
T7B50 002:886 JLINK_ReadReg(FPS28)  returns 0x00000000 (0000ms, 0487ms total)
T7B50 002:886 JLINK_ReadReg(FPS29)  returns 0x00000000 (0000ms, 0487ms total)
T7B50 002:886 JLINK_ReadReg(FPS30)  returns 0x00000000 (0000ms, 0487ms total)
T7B50 002:886 JLINK_ReadReg(FPS31)  returns 0x00000000 (0000ms, 0487ms total)
T64F8 002:891 JLINK_ReadMemEx(0x20000038, 0x0001 Bytes, ..., Flags = 0x02000000) -- CPU_ReadMem(64 bytes @ 0x20000000) -- Updating C cache (64 bytes @ 0x20000000) -- Read from C cache (1 bytes @ 0x20000038) - Data: 00  returns 0x01 (0001ms, 0488ms total)
T64F8 002:898 JLINK_ReadMemEx(0x20000039, 0x0001 Bytes, ..., Flags = 0x02000000) -- Read from C cache (1 bytes @ 0x20000039) - Data: 00  returns 0x01 (0000ms, 0488ms total)
T64F8 002:905 JLINK_ReadMemEx(0x2000003A, 0x0001 Bytes, ..., Flags = 0x02000000) -- Read from C cache (1 bytes @ 0x2000003A) - Data: 00  returns 0x01 (0000ms, 0488ms total)
T64F8 002:915 JLINK_ReadMemEx(0x08000BC4, 0x003C Bytes, ..., Flags = 0x02000000) -- CPU_ReadMem(64 bytes @ 0x08000BC0) -- Updating C cache (64 bytes @ 0x08000BC0) -- Read from C cache (60 bytes @ 0x08000BC4) - Data: FF F7 6C FF FF F7 AE FC 21 48 FF F7 4B FF 21 48 ...  returns 0x3C (0001ms, 0489ms total)
T64F8 004:250 JLINK_ReadMemEx(0x080006BC, 0x003C Bytes, ..., Flags = 0x02000000) -- CPU_ReadMem(128 bytes @ 0x08000680) -- Updating C cache (128 bytes @ 0x08000680) -- Read from C cache (60 bytes @ 0x080006BC) - Data: 08 4C 24 1D 24 68 44 F4 80 34 06 4D 2D 1D 2C 60 ...  returns 0x3C (0001ms, 0490ms total)
T64F8 012:935 JLINK_ReadMemEx(0x08000C42, 0x0002 Bytes, ..., Flags = 0x02000000) -- CPU_ReadMem(64 bytes @ 0x08000C40) -- Updating C cache (64 bytes @ 0x08000C40) -- Read from C cache (2 bytes @ 0x08000C42) - Data: FF F7  returns 0x02 (0001ms, 0491ms total)
T64F8 012:936 JLINK_ReadMemEx(0x08000C44, 0x003C Bytes, ..., Flags = 0x02000000) -- Read from C cache (60 bytes @ 0x08000C44) - Data: C3 FC 03 E0 02 48 FF F7 1B FF 00 BF DE E7 00 00 ...  returns 0x3C (0000ms, 0491ms total)
T64F8 015:882 JLINK_ReadMemEx(0x080005EA, 0x0002 Bytes, ..., Flags = 0x02000000) -- CPU_ReadMem(64 bytes @ 0x080005C0) -- Updating C cache (64 bytes @ 0x080005C0) -- Read from C cache (2 bytes @ 0x080005EA) - Data: 03 21  returns 0x02 (0001ms, 0492ms total)
T64F8 015:883 JLINK_ReadMemEx(0x080005EC, 0x003C Bytes, ..., Flags = 0x02000000) -- CPU_ReadMem(64 bytes @ 0x08000600) -- Updating C cache (64 bytes @ 0x08000600) -- Read from C cache (60 bytes @ 0x080005EC) - Data: 14 48 FF F7 D5 FF 01 28 03 D0 10 48 00 F0 44 FA ...  returns 0x3C (0001ms, 0493ms total)
T7B50 031:817 JLINK_ReadMemEx(0x08000BC4, 0x0002 Bytes, ..., Flags = 0x02000000) -- Read from C cache (2 bytes @ 0x08000BC4) - Data: FF F7  returns 0x02 (0000ms, 0493ms total)
T7B50 031:817 JLINK_SetBPEx(Addr = 0x0800062E, Type = 0xFFFFFFF2)  returns 0x00000005 (0000ms, 0493ms total)
T7B50 031:817 JLINK_SetBPEx(Addr = 0x08000698, Type = 0xFFFFFFF2)  returns 0x00000006 (0000ms, 0493ms total)
T7B50 031:817 JLINK_Go() -- CPU_WriteMem(4 bytes @ 0xE0002000) -- CPU_WriteMem(4 bytes @ 0xE0002000) -- CPU_ReadMem(4 bytes @ 0xE0001000) -- CPU_WriteMem(4 bytes @ 0xE0002008) -- CPU_WriteMem(4 bytes @ 0xE000200C) -- CPU_WriteMem(4 bytes @ 0xE0002010) -- CPU_WriteMem(4 bytes @ 0xE0002014) (0003ms, 0496ms total)
T7B50 031:921 JLINK_IsHalted()  returns TRUE (0003ms, 0499ms total)
T7B50 031:924 JLINK_Halt()  returns 0x00 (0000ms, 0496ms total)
T7B50 031:924 JLINK_IsHalted()  returns TRUE (0000ms, 0496ms total)
T7B50 031:924 JLINK_IsHalted()  returns TRUE (0000ms, 0496ms total)
T7B50 031:924 JLINK_IsHalted()  returns TRUE (0000ms, 0496ms total)
T7B50 031:924 JLINK_ReadReg(R15 (PC))  returns 0x08000698 (0000ms, 0496ms total)
T7B50 031:924 JLINK_ReadReg(XPSR)  returns 0x01000000 (0000ms, 0496ms total)
T7B50 031:924 JLINK_ClrBPEx(BPHandle = 0x00000005)  returns 0x00 (0000ms, 0496ms total)
T7B50 031:924 JLINK_ClrBPEx(BPHandle = 0x00000006)  returns 0x00 (0000ms, 0496ms total)
T7B50 031:924 JLINK_ReadMemU32(0xE000ED30, 0x0001 Items, ...) -- CPU_ReadMem(4 bytes @ 0xE000ED30) - Data: 02 00 00 00  returns 0x01 (0000ms, 0496ms total)
T7B50 031:924 JLINK_ReadMemU32(0xE0001028, 0x0001 Items, ...) -- CPU_ReadMem(4 bytes @ 0xE0001028) - Data: 00 00 00 00  returns 0x01 (0001ms, 0497ms total)
T7B50 031:925 JLINK_ReadMemU32(0xE0001038, 0x0001 Items, ...) -- CPU_ReadMem(4 bytes @ 0xE0001038) - Data: 00 02 00 00  returns 0x01 (0000ms, 0497ms total)
T7B50 031:925 JLINK_ReadMemU32(0xE0001048, 0x0001 Items, ...) -- CPU_ReadMem(4 bytes @ 0xE0001048) - Data: 00 00 00 00  returns 0x01 (0001ms, 0498ms total)
T7B50 031:926 JLINK_ReadMemU32(0xE0001058, 0x0001 Items, ...) -- CPU_ReadMem(4 bytes @ 0xE0001058) - Data: 00 00 00 00  returns 0x01 (0000ms, 0498ms total)
T7B50 031:926 JLINK_ReadReg(R0)  returns 0x20000694 (0000ms, 0498ms total)
T7B50 031:926 JLINK_ReadReg(R1)  returns 0x00000000 (0000ms, 0498ms total)
T7B50 031:926 JLINK_ReadReg(R2)  returns 0x00000002 (0000ms, 0498ms total)
T7B50 031:926 JLINK_ReadReg(R3)  returns 0x20000690 (0000ms, 0498ms total)
T7B50 031:926 JLINK_ReadReg(R4)  returns 0x00000012 (0000ms, 0498ms total)
T7B50 031:926 JLINK_ReadReg(R5)  returns 0x40023C10 (0000ms, 0498ms total)
T7B50 031:926 JLINK_ReadReg(R6)  returns 0x00000000 (0000ms, 0498ms total)
T7B50 031:926 JLINK_ReadReg(R7)  returns 0x00000000 (0000ms, 0498ms total)
T7B50 031:926 JLINK_ReadReg(R8)  returns 0x00000000 (0000ms, 0498ms total)
T7B50 031:926 JLINK_ReadReg(R9)  returns 0x00000000 (0000ms, 0498ms total)
T7B50 031:926 JLINK_ReadReg(R10)  returns 0x08000CAC (0000ms, 0498ms total)
T7B50 031:926 JLINK_ReadReg(R11)  returns 0x00000000 (0000ms, 0498ms total)
T7B50 031:926 JLINK_ReadReg(R12)  returns 0x00000006 (0000ms, 0498ms total)
T7B50 031:926 JLINK_ReadReg(R13 (SP))  returns 0x20000684 (0000ms, 0498ms total)
T7B50 031:926 JLINK_ReadReg(R14)  returns 0x0800062B (0000ms, 0498ms total)
T7B50 031:926 JLINK_ReadReg(R15 (PC))  returns 0x08000698 (0000ms, 0498ms total)
T7B50 031:926 JLINK_ReadReg(XPSR)  returns 0x01000000 (0000ms, 0498ms total)
T7B50 031:926 JLINK_ReadReg(MSP)  returns 0x20000684 (0000ms, 0498ms total)
T7B50 031:926 JLINK_ReadReg(PSP)  returns 0x00000000 (0000ms, 0498ms total)
T7B50 031:926 JLINK_ReadReg(CFBP)  returns 0x04000000 (0000ms, 0498ms total)
T7B50 031:926 JLINK_ReadReg(FPSCR)  returns 0x03000000 (0005ms, 0503ms total)
T7B50 031:931 JLINK_ReadReg(FPS0)  returns 0x00000000 (0000ms, 0503ms total)
T7B50 031:931 JLINK_ReadReg(FPS1)  returns 0x00000000 (0000ms, 0503ms total)
T7B50 031:931 JLINK_ReadReg(FPS2)  returns 0x00000000 (0000ms, 0503ms total)
T7B50 031:931 JLINK_ReadReg(FPS3)  returns 0x00000000 (0000ms, 0503ms total)
T7B50 031:931 JLINK_ReadReg(FPS4)  returns 0x00000000 (0000ms, 0503ms total)
T7B50 031:931 JLINK_ReadReg(FPS5)  returns 0x00000000 (0000ms, 0503ms total)
T7B50 031:931 JLINK_ReadReg(FPS6)  returns 0x00000000 (0000ms, 0503ms total)
T7B50 031:931 JLINK_ReadReg(FPS7)  returns 0x00000000 (0000ms, 0503ms total)
T7B50 031:931 JLINK_ReadReg(FPS8)  returns 0x00000000 (0000ms, 0503ms total)
T7B50 031:931 JLINK_ReadReg(FPS9)  returns 0x00000000 (0000ms, 0503ms total)
T7B50 031:931 JLINK_ReadReg(FPS10)  returns 0x00000000 (0000ms, 0503ms total)
T7B50 031:931 JLINK_ReadReg(FPS11)  returns 0x00000000 (0000ms, 0503ms total)
T7B50 031:931 JLINK_ReadReg(FPS12)  returns 0x00000000 (0000ms, 0503ms total)
T7B50 031:931 JLINK_ReadReg(FPS13)  returns 0x00000000 (0000ms, 0503ms total)
T7B50 031:931 JLINK_ReadReg(FPS14)  returns 0x00000000 (0000ms, 0503ms total)
T7B50 031:931 JLINK_ReadReg(FPS15)  returns 0x00000000 (0000ms, 0503ms total)
T7B50 031:931 JLINK_ReadReg(FPS16)  returns 0x00000000 (0000ms, 0503ms total)
T7B50 031:931 JLINK_ReadReg(FPS17)  returns 0x00000000 (0000ms, 0503ms total)
T7B50 031:931 JLINK_ReadReg(FPS18)  returns 0x00000000 (0000ms, 0503ms total)
T7B50 031:931 JLINK_ReadReg(FPS19)  returns 0x00000000 (0000ms, 0503ms total)
T7B50 031:931 JLINK_ReadReg(FPS20)  returns 0x00000000 (0000ms, 0503ms total)
T7B50 031:931 JLINK_ReadReg(FPS21)  returns 0x00000000 (0000ms, 0503ms total)
T7B50 031:931 JLINK_ReadReg(FPS22)  returns 0x00000000 (0000ms, 0503ms total)
T7B50 031:931 JLINK_ReadReg(FPS23)  returns 0x00000000 (0000ms, 0503ms total)
T7B50 031:931 JLINK_ReadReg(FPS24)  returns 0x00000000 (0000ms, 0503ms total)
T7B50 031:931 JLINK_ReadReg(FPS25)  returns 0x00000000 (0000ms, 0503ms total)
T7B50 031:931 JLINK_ReadReg(FPS26)  returns 0x00000000 (0001ms, 0504ms total)
T7B50 031:932 JLINK_ReadReg(FPS27)  returns 0x00000000 (0000ms, 0504ms total)
T7B50 031:932 JLINK_ReadReg(FPS28)  returns 0x00000000 (0000ms, 0504ms total)
T7B50 031:932 JLINK_ReadReg(FPS29)  returns 0x00000000 (0000ms, 0504ms total)
T7B50 031:932 JLINK_ReadReg(FPS30)  returns 0x00000000 (0000ms, 0504ms total)
T7B50 031:932 JLINK_ReadReg(FPS31)  returns 0x00000000 (0000ms, 0504ms total)
T64F8 031:932 JLINK_ReadMemEx(0x2000068C, 0x0004 Bytes, ..., Flags = 0x02000000) -- CPU_ReadMem(64 bytes @ 0x20000680) -- Updating C cache (64 bytes @ 0x20000680) -- Read from C cache (4 bytes @ 0x2000068C) - Data: 2B 06 00 08  returns 0x04 (0001ms, 0505ms total)
T64F8 031:933 JLINK_ReadMemEx(0x20000684, 0x0004 Bytes, ..., Flags = 0x02000000) -- Read from C cache (4 bytes @ 0x20000684) - Data: 00 00 00 00  returns 0x04 (0000ms, 0505ms total)
T64F8 031:933 JLINK_ReadMemEx(0x20000688, 0x0004 Bytes, ..., Flags = 0x02000000) -- Read from C cache (4 bytes @ 0x20000688) - Data: 44 00 00 20  returns 0x04 (0000ms, 0505ms total)
T64F8 031:933 JLINK_ReadMemEx(0x200006A4, 0x0004 Bytes, ..., Flags = 0x02000000) -- Read from C cache (4 bytes @ 0x200006A4) - Data: 47 0C 00 08  returns 0x04 (0000ms, 0505ms total)
T64F8 031:933 JLINK_ReadMemEx(0x200006A0, 0x0004 Bytes, ..., Flags = 0x02000000) -- Read from C cache (4 bytes @ 0x200006A0) - Data: 00 00 00 00  returns 0x04 (0000ms, 0505ms total)
T64F8 031:936 JLINK_ReadMemEx(0x20000038, 0x0001 Bytes, ..., Flags = 0x02000000) -- CPU_ReadMem(64 bytes @ 0x20000000) -- Updating C cache (64 bytes @ 0x20000000) -- Read from C cache (1 bytes @ 0x20000038) - Data: 06  returns 0x01 (0001ms, 0506ms total)
T64F8 031:937 JLINK_ReadMemEx(0x20000039, 0x0001 Bytes, ..., Flags = 0x02000000) -- Read from C cache (1 bytes @ 0x20000039) - Data: 02  returns 0x01 (0000ms, 0506ms total)
T64F8 031:938 JLINK_ReadMemEx(0x2000003A, 0x0001 Bytes, ..., Flags = 0x02000000) -- Read from C cache (1 bytes @ 0x2000003A) - Data: 04  returns 0x01 (0000ms, 0506ms total)
T64F8 031:949 JLINK_ReadMemEx(0x08000698, 0x003C Bytes, ..., Flags = 0x02000000) -- CPU_ReadMem(128 bytes @ 0x08000680) -- Updating C cache (128 bytes @ 0x08000680) -- Read from C cache (60 bytes @ 0x08000698) - Data: 2C 46 24 68 44 F4 80 34 2C 60 00 BF 0E 4C 24 68 ...  returns 0x3C (0001ms, 0507ms total)
T64F8 042:756 JLINK_ReadMemEx(0x08008000, 0x018C Bytes, ..., Flags = 0x02000000) -- CPU_ReadMem(448 bytes @ 0x08008000) -- Updating C cache (448 bytes @ 0x08008000) -- Read from C cache (396 bytes @ 0x08008000) - Data: 08 04 00 20 AD 81 00 08 43 8A 00 08 3F 8A 00 08 ...  returns 0x18C (0003ms, 0510ms total)
T7B50 047:955 JLINK_ReadMemEx(0x08000698, 0x0002 Bytes, ..., Flags = 0x02000000) -- Read from C cache (2 bytes @ 0x08000698) - Data: 2C 46  returns 0x02 (0000ms, 0510ms total)
T7B50 047:955 JLINK_Step() -- Read from C cache (2 bytes @ 0x08000698) -- CPU_ReadMem(4 bytes @ 0xE000ED18) -- CPU_WriteMem(4 bytes @ 0xE000ED18) -- CPU_ReadMem(4 bytes @ 0xE000ED18) -- CPU_WriteMem(4 bytes @ 0xE000ED18) -- CPU_ReadMem(4 bytes @ 0xE0001004) -- Simulated  returns 0x00 (0002ms, 0512ms total)
T7B50 047:957 JLINK_ReadReg(R15 (PC))  returns 0x0800069A (0000ms, 0512ms total)
T7B50 047:957 JLINK_ReadReg(XPSR)  returns 0x01000000 (0000ms, 0512ms total)
T7B50 047:957 JLINK_SetBPEx(Addr = 0x0800062E, Type = 0xFFFFFFF2)  returns 0x00000007 (0000ms, 0512ms total)
T7B50 047:957 JLINK_SetBPEx(Addr = 0x08000698, Type = 0xFFFFFFF2)  returns 0x00000008 (0000ms, 0512ms total)
T7B50 047:957 JLINK_Go() -- CPU_WriteMem(4 bytes @ 0xE0002000) -- CPU_WriteMem(4 bytes @ 0xE0002000) -- CPU_ReadMem(4 bytes @ 0xE0001000) -- CPU_WriteMem(4 bytes @ 0xE0001004) (0002ms, 0514ms total)
T7B50 048:059 JLINK_IsHalted()  returns FALSE (0000ms, 0514ms total)
T7B50 048:160 JLINK_IsHalted()  returns FALSE (0000ms, 0514ms total)
T7B50 048:261 JLINK_IsHalted()  returns FALSE (0000ms, 0514ms total)
T7B50 048:361 JLINK_IsHalted()  returns TRUE (0003ms, 0517ms total)
T7B50 048:364 JLINK_Halt()  returns 0x00 (0000ms, 0514ms total)
T7B50 048:365 JLINK_IsHalted()  returns TRUE (0000ms, 0515ms total)
T7B50 048:365 JLINK_IsHalted()  returns TRUE (0000ms, 0515ms total)
T7B50 048:365 JLINK_IsHalted()  returns TRUE (0000ms, 0515ms total)
T7B50 048:365 JLINK_ReadReg(R15 (PC))  returns 0x08000698 (0000ms, 0515ms total)
T7B50 048:365 JLINK_ReadReg(XPSR)  returns 0x01000000 (0000ms, 0515ms total)
T7B50 048:365 JLINK_ClrBPEx(BPHandle = 0x00000007)  returns 0x00 (0000ms, 0515ms total)
T7B50 048:365 JLINK_ClrBPEx(BPHandle = 0x00000008)  returns 0x00 (0000ms, 0515ms total)
T7B50 048:365 JLINK_ReadMemU32(0xE000ED30, 0x0001 Items, ...) -- CPU_ReadMem(4 bytes @ 0xE000ED30) - Data: 02 00 00 00  returns 0x01 (0000ms, 0515ms total)
T7B50 048:365 JLINK_ReadMemU32(0xE0001028, 0x0001 Items, ...) -- CPU_ReadMem(4 bytes @ 0xE0001028) - Data: 00 00 00 00  returns 0x01 (0001ms, 0516ms total)
T7B50 048:366 JLINK_ReadMemU32(0xE0001038, 0x0001 Items, ...) -- CPU_ReadMem(4 bytes @ 0xE0001038) - Data: 00 02 00 00  returns 0x01 (0000ms, 0516ms total)
T7B50 048:366 JLINK_ReadMemU32(0xE0001048, 0x0001 Items, ...) -- CPU_ReadMem(4 bytes @ 0xE0001048) - Data: 00 00 00 00  returns 0x01 (0001ms, 0517ms total)
T7B50 048:367 JLINK_ReadMemU32(0xE0001058, 0x0001 Items, ...) -- CPU_ReadMem(4 bytes @ 0xE0001058) - Data: 00 00 00 00  returns 0x01 (0000ms, 0517ms total)
T7B50 048:367 JLINK_ReadReg(R0)  returns 0x20000694 (0000ms, 0517ms total)
T7B50 048:367 JLINK_ReadReg(R1)  returns 0x00000001 (0000ms, 0517ms total)
T7B50 048:367 JLINK_ReadReg(R2)  returns 0x00000003 (0000ms, 0517ms total)
T7B50 048:367 JLINK_ReadReg(R3)  returns 0x20000690 (0000ms, 0517ms total)
T7B50 048:367 JLINK_ReadReg(R4)  returns 0x0000001A (0000ms, 0517ms total)
T7B50 048:367 JLINK_ReadReg(R5)  returns 0x40023C10 (0000ms, 0517ms total)
T7B50 048:367 JLINK_ReadReg(R6)  returns 0x00000000 (0000ms, 0517ms total)
T7B50 048:367 JLINK_ReadReg(R7)  returns 0x00000000 (0000ms, 0517ms total)
T7B50 048:367 JLINK_ReadReg(R8)  returns 0x00000000 (0000ms, 0517ms total)
T7B50 048:367 JLINK_ReadReg(R9)  returns 0x00000000 (0000ms, 0517ms total)
T7B50 048:367 JLINK_ReadReg(R10)  returns 0x08000CAC (0000ms, 0517ms total)
T7B50 048:367 JLINK_ReadReg(R11)  returns 0x00000000 (0000ms, 0517ms total)
T7B50 048:367 JLINK_ReadReg(R12)  returns 0x00000006 (0000ms, 0517ms total)
T7B50 048:367 JLINK_ReadReg(R13 (SP))  returns 0x20000684 (0000ms, 0517ms total)
T7B50 048:367 JLINK_ReadReg(R14)  returns 0x0800062B (0000ms, 0517ms total)
T7B50 048:367 JLINK_ReadReg(R15 (PC))  returns 0x08000698 (0000ms, 0517ms total)
T7B50 048:367 JLINK_ReadReg(XPSR)  returns 0x01000000 (0000ms, 0517ms total)
T7B50 048:367 JLINK_ReadReg(MSP)  returns 0x20000684 (0000ms, 0517ms total)
T7B50 048:367 JLINK_ReadReg(PSP)  returns 0x00000000 (0000ms, 0517ms total)
T7B50 048:367 JLINK_ReadReg(CFBP)  returns 0x04000000 (0000ms, 0517ms total)
T7B50 048:367 JLINK_ReadReg(FPSCR)  returns 0x03000000 (0005ms, 0522ms total)
T7B50 048:372 JLINK_ReadReg(FPS0)  returns 0x00000000 (0000ms, 0522ms total)
T7B50 048:372 JLINK_ReadReg(FPS1)  returns 0x00000000 (0000ms, 0522ms total)
T7B50 048:372 JLINK_ReadReg(FPS2)  returns 0x00000000 (0000ms, 0522ms total)
T7B50 048:372 JLINK_ReadReg(FPS3)  returns 0x00000000 (0000ms, 0522ms total)
T7B50 048:372 JLINK_ReadReg(FPS4)  returns 0x00000000 (0000ms, 0522ms total)
T7B50 048:372 JLINK_ReadReg(FPS5)  returns 0x00000000 (0000ms, 0522ms total)
T7B50 048:372 JLINK_ReadReg(FPS6)  returns 0x00000000 (0000ms, 0522ms total)
T7B50 048:372 JLINK_ReadReg(FPS7)  returns 0x00000000 (0000ms, 0522ms total)
T7B50 048:372 JLINK_ReadReg(FPS8)  returns 0x00000000 (0000ms, 0522ms total)
T7B50 048:372 JLINK_ReadReg(FPS9)  returns 0x00000000 (0000ms, 0522ms total)
T7B50 048:372 JLINK_ReadReg(FPS10)  returns 0x00000000 (0000ms, 0522ms total)
T7B50 048:372 JLINK_ReadReg(FPS11)  returns 0x00000000 (0000ms, 0522ms total)
T7B50 048:372 JLINK_ReadReg(FPS12)  returns 0x00000000 (0000ms, 0522ms total)
T7B50 048:372 JLINK_ReadReg(FPS13)  returns 0x00000000 (0000ms, 0522ms total)
T7B50 048:372 JLINK_ReadReg(FPS14)  returns 0x00000000 (0000ms, 0522ms total)
T7B50 048:372 JLINK_ReadReg(FPS15)  returns 0x00000000 (0000ms, 0522ms total)
T7B50 048:372 JLINK_ReadReg(FPS16)  returns 0x00000000 (0000ms, 0522ms total)
T7B50 048:372 JLINK_ReadReg(FPS17)  returns 0x00000000 (0000ms, 0522ms total)
T7B50 048:372 JLINK_ReadReg(FPS18)  returns 0x00000000 (0000ms, 0522ms total)
T7B50 048:372 JLINK_ReadReg(FPS19)  returns 0x00000000 (0000ms, 0522ms total)
T7B50 048:372 JLINK_ReadReg(FPS20)  returns 0x00000000 (0000ms, 0522ms total)
T7B50 048:372 JLINK_ReadReg(FPS21)  returns 0x00000000 (0000ms, 0522ms total)
T7B50 048:372 JLINK_ReadReg(FPS22)  returns 0x00000000 (0000ms, 0522ms total)
T7B50 048:372 JLINK_ReadReg(FPS23)  returns 0x00000000 (0000ms, 0522ms total)
T7B50 048:372 JLINK_ReadReg(FPS24)  returns 0x00000000 (0000ms, 0522ms total)
T7B50 048:372 JLINK_ReadReg(FPS25)  returns 0x00000000 (0000ms, 0522ms total)
T7B50 048:372 JLINK_ReadReg(FPS26)  returns 0x00000000 (0000ms, 0522ms total)
T7B50 048:372 JLINK_ReadReg(FPS27)  returns 0x00000000 (0000ms, 0522ms total)
T7B50 048:372 JLINK_ReadReg(FPS28)  returns 0x00000000 (0000ms, 0522ms total)
T7B50 048:372 JLINK_ReadReg(FPS29)  returns 0x00000000 (0000ms, 0522ms total)
T7B50 048:372 JLINK_ReadReg(FPS30)  returns 0x00000000 (0000ms, 0522ms total)
T7B50 048:372 JLINK_ReadReg(FPS31)  returns 0x00000000 (0000ms, 0522ms total)
T64F8 048:372 JLINK_ReadMemEx(0x2000068C, 0x0004 Bytes, ..., Flags = 0x02000000) -- CPU_ReadMem(64 bytes @ 0x20000680) -- Updating C cache (64 bytes @ 0x20000680) -- Read from C cache (4 bytes @ 0x2000068C) - Data: 2B 06 00 08  returns 0x04 (0002ms, 0524ms total)
T64F8 048:374 JLINK_ReadMemEx(0x20000684, 0x0004 Bytes, ..., Flags = 0x02000000) -- Read from C cache (4 bytes @ 0x20000684) - Data: 00 00 00 00  returns 0x04 (0000ms, 0524ms total)
T64F8 048:374 JLINK_ReadMemEx(0x20000688, 0x0004 Bytes, ..., Flags = 0x02000000) -- Read from C cache (4 bytes @ 0x20000688) - Data: 44 00 00 20  returns 0x04 (0000ms, 0524ms total)
T64F8 048:374 JLINK_ReadMemEx(0x200006A4, 0x0004 Bytes, ..., Flags = 0x02000000) -- Read from C cache (4 bytes @ 0x200006A4) - Data: 47 0C 00 08  returns 0x04 (0000ms, 0524ms total)
T64F8 048:374 JLINK_ReadMemEx(0x200006A0, 0x0004 Bytes, ..., Flags = 0x02000000) -- Read from C cache (4 bytes @ 0x200006A0) - Data: 00 00 00 00  returns 0x04 (0000ms, 0524ms total)
T64F8 048:374 JLINK_ReadMemEx(0x20000038, 0x0001 Bytes, ..., Flags = 0x02000000) -- CPU_ReadMem(64 bytes @ 0x20000000) -- Updating C cache (64 bytes @ 0x20000000) -- Read from C cache (1 bytes @ 0x20000038) - Data: 06  returns 0x01 (0001ms, 0525ms total)
T64F8 048:375 JLINK_ReadMemEx(0x20000039, 0x0001 Bytes, ..., Flags = 0x02000000) -- Read from C cache (1 bytes @ 0x20000039) - Data: 02  returns 0x01 (0000ms, 0525ms total)
T64F8 048:375 JLINK_ReadMemEx(0x2000003A, 0x0001 Bytes, ..., Flags = 0x02000000) -- Read from C cache (1 bytes @ 0x2000003A) - Data: 04  returns 0x01 (0000ms, 0525ms total)
T64F8 048:375 JLINK_ReadMemEx(0x08008000, 0x018C Bytes, ..., Flags = 0x02000000) -- CPU_ReadMem(448 bytes @ 0x08008000) -- Updating C cache (448 bytes @ 0x08008000) -- Read from C cache (396 bytes @ 0x08008000) - Data: FF FF FF FF FF FF FF FF FF FF FF FF FF FF FF FF ...  returns 0x18C (0004ms, 0529ms total)
T64F8 050:443 JLINK_ReadMemEx(0x0800802C, 0x018C Bytes, ..., Flags = 0x02000000) -- Read from C cache (396 bytes @ 0x0800802C) - Data: FF FF FF FF FF FF FF FF FF FF FF FF FF FF FF FF ...  returns 0x18C (0000ms, 0529ms total)
T64F8 050:772 JLINK_ReadMemEx(0x08008058, 0x018C Bytes, ..., Flags = 0x02000000) -- CPU_ReadMem(64 bytes @ 0x080081C0) -- Updating C cache (64 bytes @ 0x080081C0) -- Read from C cache (396 bytes @ 0x08008058) - Data: FF FF FF FF FF FF FF FF FF FF FF FF FF FF FF FF ...  returns 0x18C (0001ms, 0530ms total)
T64F8 051:014 JLINK_ReadMemEx(0x08008084, 0x018C Bytes, ..., Flags = 0x02000000) -- CPU_ReadMem(64 bytes @ 0x08008200) -- Updating C cache (64 bytes @ 0x08008200) -- Read from C cache (396 bytes @ 0x08008084) - Data: FF FF FF FF FF FF FF FF FF FF FF FF FF FF FF FF ...  returns 0x18C (0001ms, 0531ms total)
T64F8 051:414 JLINK_ReadMemEx(0x080080B0, 0x018C Bytes, ..., Flags = 0x02000000) -- Read from C cache (396 bytes @ 0x080080B0) - Data: FF FF FF FF FF FF FF FF FF FF FF FF FF FF FF FF ...  returns 0x18C (0000ms, 0531ms total)
T64F8 051:479 JLINK_ReadMemEx(0x080080DC, 0x018C Bytes, ..., Flags = 0x02000000) -- CPU_ReadMem(64 bytes @ 0x08008240) -- Updating C cache (64 bytes @ 0x08008240) -- Read from C cache (396 bytes @ 0x080080DC) - Data: FF FF FF FF FF FF FF FF FF FF FF FF FF FF FF FF ...  returns 0x18C (0000ms, 0531ms total)
T64F8 051:543 JLINK_ReadMemEx(0x08008108, 0x018C Bytes, ..., Flags = 0x02000000) -- CPU_ReadMem(64 bytes @ 0x08008280) -- Updating C cache (64 bytes @ 0x08008280) -- Read from C cache (396 bytes @ 0x08008108) - Data: FF FF FF FF FF FF FF FF FF FF FF FF FF FF FF FF ...  returns 0x18C (0001ms, 0532ms total)
T64F8 051:604 JLINK_ReadMemEx(0x08008134, 0x018C Bytes, ..., Flags = 0x02000000) -- Read from C cache (396 bytes @ 0x08008134) - Data: FF FF FF FF FF FF FF FF FF FF FF FF FF FF FF FF ...  returns 0x18C (0001ms, 0533ms total)
T64F8 051:669 JLINK_ReadMemEx(0x08008160, 0x018C Bytes, ..., Flags = 0x02000000) -- CPU_ReadMem(64 bytes @ 0x080082C0) -- Updating C cache (64 bytes @ 0x080082C0) -- Read from C cache (396 bytes @ 0x08008160) - Data: FF FF FF FF FF FF FF FF FF FF FF FF FF FF FF FF ...  returns 0x18C (0001ms, 0534ms total)
T64F8 051:729 JLINK_ReadMemEx(0x0800818C, 0x018C Bytes, ..., Flags = 0x02000000) -- CPU_ReadMem(64 bytes @ 0x08008300) -- Updating C cache (64 bytes @ 0x08008300) -- Read from C cache (396 bytes @ 0x0800818C) - Data: FF FF FF FF FF FF FF FF FF FF FF FF FF FF FF FF ...  returns 0x18C (0001ms, 0535ms total)
T64F8 051:792 JLINK_ReadMemEx(0x080081B8, 0x018C Bytes, ..., Flags = 0x02000000) -- CPU_ReadMem(64 bytes @ 0x08008340) -- Updating C cache (64 bytes @ 0x08008340) -- Read from C cache (396 bytes @ 0x080081B8) - Data: FF FF FF FF FF FF FF FF FF FF FF FF FF FF FF FF ...  returns 0x18C (0001ms, 0536ms total)
T64F8 051:854 JLINK_ReadMemEx(0x080081E4, 0x018C Bytes, ..., Flags = 0x02000000) -- Read from C cache (396 bytes @ 0x080081E4) - Data: FF FF FF FF FF FF FF FF FF FF FF FF FF FF FF FF ...  returns 0x18C (0000ms, 0536ms total)
T64F8 051:916 JLINK_ReadMemEx(0x08008210, 0x018C Bytes, ..., Flags = 0x02000000) -- CPU_ReadMem(64 bytes @ 0x08008380) -- Updating C cache (64 bytes @ 0x08008380) -- Read from C cache (396 bytes @ 0x08008210) - Data: FF FF FF FF FF FF FF FF FF FF FF FF FF FF FF FF ...  returns 0x18C (0001ms, 0537ms total)
T64F8 051:978 JLINK_ReadMemEx(0x0800823C, 0x018C Bytes, ..., Flags = 0x02000000) -- CPU_ReadMem(64 bytes @ 0x080083C0) -- Updating C cache (64 bytes @ 0x080083C0) -- Read from C cache (396 bytes @ 0x0800823C) - Data: FF FF FF FF FF FF FF FF FF FF FF FF FF FF FF FF ...  returns 0x18C (0001ms, 0538ms total)
T64F8 052:043 JLINK_ReadMemEx(0x08008268, 0x018C Bytes, ..., Flags = 0x02000000) -- Read from C cache (396 bytes @ 0x08008268) - Data: FF FF FF FF FF FF FF FF FF FF FF FF FF FF FF FF ...  returns 0x18C (0000ms, 0538ms total)
T64F8 052:106 JLINK_ReadMemEx(0x08008294, 0x016C Bytes, ..., Flags = 0x02000000) -- Read from C cache (364 bytes @ 0x08008294) - Data: FF FF FF FF FF FF FF FF FF FF FF FF FF FF FF FF ...  returns 0x16C (0000ms, 0538ms total)
T64F8 052:106 JLINK_ReadMemEx(0x08008400, 0x0020 Bytes, ..., Flags = 0x02000000) -- CPU_ReadMem(64 bytes @ 0x08008400) -- Updating C cache (64 bytes @ 0x08008400) -- Read from C cache (32 bytes @ 0x08008400) - Data: FF FF FF FF FF FF FF FF FF FF FF FF FF FF FF FF ...  returns 0x20 (0001ms, 0539ms total)
T64F8 052:165 JLINK_ReadMemEx(0x080082C0, 0x0140 Bytes, ..., Flags = 0x02000000) -- Read from C cache (320 bytes @ 0x080082C0) - Data: FF FF FF FF FF FF FF FF FF FF FF FF FF FF FF FF ...  returns 0x140 (0000ms, 0539ms total)
T64F8 052:165 JLINK_ReadMemEx(0x08008400, 0x004C Bytes, ..., Flags = 0x02000000) -- CPU_ReadMem(64 bytes @ 0x08008440) -- Updating C cache (64 bytes @ 0x08008440) -- Read from C cache (76 bytes @ 0x08008400) - Data: FF FF FF FF FF FF FF FF FF FF FF FF FF FF FF FF ...  returns 0x4C (0001ms, 0540ms total)
T64F8 052:229 JLINK_ReadMemEx(0x080082EC, 0x0114 Bytes, ..., Flags = 0x02000000) -- Read from C cache (276 bytes @ 0x080082EC) - Data: FF FF FF FF FF FF FF FF FF FF FF FF FF FF FF FF ...  returns 0x114 (0000ms, 0540ms total)
T64F8 052:229 JLINK_ReadMemEx(0x08008400, 0x0078 Bytes, ..., Flags = 0x02000000) -- Read from C cache (120 bytes @ 0x08008400) - Data: FF FF FF FF FF FF FF FF FF FF FF FF FF FF FF FF ...  returns 0x78 (0000ms, 0540ms total)
T64F8 052:289 JLINK_ReadMemEx(0x08008318, 0x00E8 Bytes, ..., Flags = 0x02000000) -- Read from C cache (232 bytes @ 0x08008318) - Data: FF FF FF FF FF FF FF FF FF FF FF FF FF FF FF FF ...  returns 0xE8 (0000ms, 0540ms total)
T64F8 052:289 JLINK_ReadMemEx(0x08008400, 0x00A4 Bytes, ..., Flags = 0x02000000) -- CPU_ReadMem(64 bytes @ 0x08008480) -- Updating C cache (64 bytes @ 0x08008480) -- Read from C cache (164 bytes @ 0x08008400) - Data: FF FF FF FF FF FF FF FF FF FF FF FF FF FF FF FF ...  returns 0xA4 (0001ms, 0541ms total)
T64F8 052:352 JLINK_ReadMemEx(0x08008344, 0x00BC Bytes, ..., Flags = 0x02000000) -- Read from C cache (188 bytes @ 0x08008344) - Data: FF FF FF FF FF FF FF FF FF FF FF FF FF FF FF FF ...  returns 0xBC (0000ms, 0541ms total)
T64F8 052:352 JLINK_ReadMemEx(0x08008400, 0x00D0 Bytes, ..., Flags = 0x02000000) -- CPU_ReadMem(64 bytes @ 0x080084C0) -- Updating C cache (64 bytes @ 0x080084C0) -- Read from C cache (208 bytes @ 0x08008400) - Data: FF FF FF FF FF FF FF FF FF FF FF FF FF FF FF FF ...  returns 0xD0 (0002ms, 0543ms total)
T64F8 052:417 JLINK_ReadMemEx(0x08008370, 0x0090 Bytes, ..., Flags = 0x02000000) -- Read from C cache (144 bytes @ 0x08008370) - Data: FF FF FF FF FF FF FF FF FF FF FF FF FF FF FF FF ...  returns 0x90 (0000ms, 0543ms total)
T64F8 052:417 JLINK_ReadMemEx(0x08008400, 0x00FC Bytes, ..., Flags = 0x02000000) -- Read from C cache (252 bytes @ 0x08008400) - Data: FF FF FF FF FF FF FF FF FF FF FF FF FF FF FF FF ...  returns 0xFC (0000ms, 0543ms total)
T64F8 052:479 JLINK_ReadMemEx(0x0800839C, 0x0064 Bytes, ..., Flags = 0x02000000) -- Read from C cache (100 bytes @ 0x0800839C) - Data: FF FF FF FF FF FF FF FF FF FF FF FF FF FF FF FF ...  returns 0x64 (0000ms, 0543ms total)
T64F8 052:479 JLINK_ReadMemEx(0x08008400, 0x0128 Bytes, ..., Flags = 0x02000000) -- CPU_ReadMem(64 bytes @ 0x08008500) -- Updating C cache (64 bytes @ 0x08008500) -- Read from C cache (296 bytes @ 0x08008400) - Data: FF FF FF FF FF FF FF FF FF FF FF FF FF FF FF FF ...  returns 0x128 (0001ms, 0544ms total)
T64F8 052:542 JLINK_ReadMemEx(0x080083C8, 0x0038 Bytes, ..., Flags = 0x02000000) -- Read from C cache (56 bytes @ 0x080083C8) - Data: FF FF FF FF FF FF FF FF FF FF FF FF FF FF FF FF ...  returns 0x38 (0000ms, 0544ms total)
T64F8 052:542 JLINK_ReadMemEx(0x08008400, 0x0154 Bytes, ..., Flags = 0x02000000) -- CPU_ReadMem(64 bytes @ 0x08008540) -- Updating C cache (64 bytes @ 0x08008540) -- Read from C cache (340 bytes @ 0x08008400) - Data: FF FF FF FF FF FF FF FF FF FF FF FF FF FF FF FF ...  returns 0x154 (0002ms, 0546ms total)
T64F8 052:603 JLINK_ReadMemEx(0x080083F4, 0x000C Bytes, ..., Flags = 0x02000000) -- Read from C cache (12 bytes @ 0x080083F4) - Data: FF FF FF FF FF FF FF FF FF FF FF FF  returns 0x0C (0000ms, 0546ms total)
T64F8 052:603 JLINK_ReadMemEx(0x08008400, 0x0180 Bytes, ..., Flags = 0x02000000) -- Read from C cache (384 bytes @ 0x08008400) - Data: FF FF FF FF FF FF FF FF FF FF FF FF FF FF FF FF ...  returns 0x180 (0000ms, 0546ms total)
